
T14D0 000:367 SEGGER J-Link V5.00l Log File (0000ms, 0338ms total)
T14D0 000:367 DLL Compiled: Aug  7 2015 15:52:45 (0000ms, 0338ms total)
T14D0 000:367 Logging started @ 2016-05-09 15:37 (0000ms, 0338ms total)
T14D0 000:367 JLINK_SetWarnOutHandler(...) (0000ms, 0338ms total)
T14D0 000:367 JLINK_OpenEx(...)
Firmware: J-Link V9 compiled Jun 23 2015 10:00:59
Hardware: V9.20
Feature(s): GDB, RDI, FlashBP, FlashDL, JFlash  returns O.K. (0333ms, 0671ms total)
T14D0 000:700 JLINK_SetErrorOutHandler(...) (0000ms, 0671ms total)
T14D0 000:700 JLINK_ExecCommand("ProjectFile = "W:\AirCraft\JLinkSettings.ini"", ...)Device "STM32F756VG" selected.  returns 0x00 (0005ms, 0676ms total)
T14D0 000:705 JLINK_ExecCommand("Device = STM32F756VGTx", ...)Device "STM32F756VG" selected.  returns 0x00 (0022ms, 0698ms total)
T14D0 000:727 JLINK_ExecCommand("DisableConnectionTimeout", ...)  returns 0x01 (0000ms, 0698ms total)
T14D0 000:727 JLINK_GetHardwareVersion()  returns 0x16760 (0000ms, 0698ms total)
T14D0 000:727 JLINK_GetDLLVersion()  returns 50012 (0000ms, 0698ms total)
T14D0 000:727 JLINK_GetFirmwareString(...) (0000ms, 0698ms total)
T14D0 000:728 JLINK_GetDLLVersion()  returns 50012 (0000ms, 0698ms total)
T14D0 000:728 JLINK_GetCompileDateTime() (0000ms, 0698ms total)
T14D0 000:728 JLINK_GetFirmwareString(...) (0000ms, 0698ms total)
T14D0 000:729 JLINK_GetHardwareVersion()  returns 0x16760 (0000ms, 0698ms total)
T14D0 000:730 JLINK_TIF_Select(JLINKARM_TIF_SWD)  returns 0x00 (0003ms, 0701ms total)
T14D0 000:733 JLINK_SetSpeed(5000) (0001ms, 0702ms total)
T14D0 000:734 JLINK_GetId() >0x108 TIF>Found SWD-DP with ID 0x5BA02477 >0x0D TIF> >0x28 TIF> >0x0D TIF> >0x28 TIF> >0x0D TIF> >0x21 TIF> >0x0D TIF> >0x28 TIF> >0x0D TIF> >0x28 TIF> >0x0D TIF> >0x28 TIF> >0x0D TIF> >0x21 TIF> >0x0D TIF> >0x21 TIF> >0x0D TIF> >0x28 TIF> >0x0D TIF> >0x21 TIF> >0x0D TIF> >0x21 TIF> >0x0D TIF> >0x28 TIF> >0x0D TIF> >0x21 TIF> >0x0D TIF> >0x21 TIF> >0x108 TIF>Found SWD-DP with ID 0x5BA02477 >0x0D TIF> >0x21 TIF> >0x0D TIF> >0x28 TIF> >0x0D TIF> >0x28 TIF> >0x0D TIF> >0x21 TIF>
 >0x0D TIF> >0x28 TIF> >0x0D TIF> >0x21 TIF> >0x0D TIF> >0x21 TIF> >0x0D TIF> >0x21 TIF> >0x0D TIF> >0x28 TIF> >0x0D TIF> >0x28 TIF> >0x0D TIF> >0x28 TIF> >0x0D TIF> >0x21 TIF> >0x0D TIF> >0x21 TIF> >0x0D TIF> >0x28 TIF> >0x0D TIF> >0x21 TIF> >0x0D TIF> >0x21 TIF> >0x0D TIF> >0x21 TIF> >0x0D TIF> >0x21 TIF> >0x0D TIF> >0x21 TIF> >0x0D TIF> >0x28 TIF> >0x0D TIF> >0x21 TIF> >0x0D TIF> >0x21 TIF> >0x0D TIF> >0x21 TIF> >0x0D TIF> >0x28 TIF> >0x0D TIF> >0x28 TIF> >0x0D TIF> >0x21 TIF> >0x0D TIF> >0x28 TIF>
 >0x0D TIF> >0x28 TIF> >0x0D TIF> >0x28 TIF> >0x0D TIF> >0x21 TIF> >0x0D TIF> >0x21 TIF> >0x0D TIF> >0x28 TIF> >0x0D TIF> >0x21 TIF> >0x0D TIF> >0x21 TIF>Found Cortex-M7 r0p1, Little endian. -- CPU_WriteMem(4 bytes @ 0xE0002000) -- CPU_ReadMem(4 bytes @ 0xE000EDF0) -- CPU_ReadMem(4 bytes @ 0xE0002000)FPUnit: 8 code (BP) slots and 0 literal slots -- CPU_ReadMem(4 bytes @ 0xE000EDFC) -- CPU_ReadMem(4 bytes @ 0xE0001000) -- CPU_WriteMem(4 bytes @ 0xE0001000) -- CPU_ReadMem(4 bytes @ 0xE000ED88)
 -- CPU_WriteMem(4 bytes @ 0xE000ED88) -- CPU_ReadMem(4 bytes @ 0xE000ED88) -- CPU_WriteMem(4 bytes @ 0xE000ED88)CoreSight components:ROMTbl 0 @ E00FD000 -- CPU_ReadMem(16 bytes @ 0xE00FD000) -- CPU_ReadMem(16 bytes @ 0xE00FEFF0) -- CPU_ReadMem(16 bytes @ 0xE00FEFE0)ROMTbl 0 [0]: 00001000, CID: B105100D, PID: 000BB4C8 ROM TableROMTbl 1 @ E00FE000 -- CPU_ReadMem(16 bytes @ 0xE00FE000) -- CPU_ReadMem(16 bytes @ 0xE00FFFF0) -- CPU_ReadMem(16 bytes @ 0xE00FFFE0)
ROMTbl 1 [0]: 00001000, CID: B105100D, PID: 000BB4C7 ROM TableROMTbl 2 @ E00FF000 -- CPU_ReadMem(16 bytes @ 0xE00FF000) -- CPU_ReadMem(16 bytes @ 0xE000EFF0) -- CPU_ReadMem(16 bytes @ 0xE000EFE0)ROMTbl 2 [0]: FFF0F000, CID: B105E00D, PID: 000BB00C SCS -- CPU_ReadMem(16 bytes @ 0xE0001FF0) -- CPU_ReadMem(16 bytes @ 0xE0001FE0)ROMTbl 2 [1]: FFF02000, CID: B105E00D, PID: 000BB002 DWT -- CPU_ReadMem(16 bytes @ 0xE0002FF0) -- CPU_ReadMem(16 bytes @ 0xE0002FE0)
ROMTbl 2 [2]: FFF03000, CID: B105E00D, PID: 000BB00E FPB -- CPU_ReadMem(16 bytes @ 0xE0000FF0) -- CPU_ReadMem(16 bytes @ 0xE0000FE0)ROMTbl 2 [3]: FFF01000, CID: B105E00D, PID: 000BB001 ITM -- CPU_ReadMem(16 bytes @ 0xE00FF010) -- CPU_ReadMem(16 bytes @ 0xE0041FF0) -- CPU_ReadMem(16 bytes @ 0xE0041FE0)ROMTbl 1 [1]: FFF43000, CID: B105900D, PID: 000BB975 ETM-M7 -- CPU_ReadMem(16 bytes @ 0xE00FE010) -- CPU_ReadMem(16 bytes @ 0xE0040FF0) -- CPU_ReadMem(16 bytes @ 0xE0040FE0)
ROMTbl 0 [1]: FFF43000, CID: B105900D, PID: 000BB9A9 TPIU-M7 -- CPU_ReadMem(16 bytes @ 0xE00FD010) -- CPU_ReadMem(4 bytes @ 0xE000ED78) -- CPU_WriteMem(4 bytes @ 0xE000ED84) -- CPU_ReadMem(4 bytes @ 0xE000ED80)I-Cache L1: 4 KB, 64 Sets, 32 Bytes/Line, 2-Way -- CPU_WriteMem(4 bytes @ 0xE000ED84) -- CPU_ReadMem(4 bytes @ 0xE000ED80)D-Cache L1: 4 KB, 32 Sets, 32 Bytes/Line, 4-Way >0x0D TIF> >0x21 TIF>  returns 0x5BA02477 (0151ms, 0853ms total)
T14D0 000:885 JLINK_GetDLLVersion()  returns 50012 (0000ms, 0853ms total)
T14D0 000:885 JLINK_CORE_GetFound()  returns 0xE0100FF (0000ms, 0853ms total)
T14D0 000:885 JLINK_GetDebugInfo(0x100) -- Value=0xE00FD003  returns 0x00 (0000ms, 0853ms total)
T14D0 000:886 JLINK_ReadMem (0xE00FD000, 0x0020 Bytes, ...) -- CPU is running -- CPU_ReadMem(32 bytes @ 0xE00FD000) - Data: 03 10 00 00 03 30 F4 FF 02 30 F0 1F 02 30 F0 1F ...  returns 0x00 (0001ms, 0854ms total)
T14D0 000:887 JLINK_ReadMem (0xE00FEFF0, 0x0010 Bytes, ...) -- CPU is running -- CPU_ReadMem(16 bytes @ 0xE00FEFF0) - Data: 0D 00 00 00 10 00 00 00 05 00 00 00 B1 00 00 00  returns 0x00 (0001ms, 0855ms total)
T14D0 000:888 JLINK_ReadMem (0xE00FEFD0, 0x0020 Bytes, ...) -- CPU is running -- CPU_ReadMem(32 bytes @ 0xE00FEFD0) - Data: 04 00 00 00 00 00 00 00 00 00 00 00 00 00 00 00 ...  returns 0x00 (0002ms, 0857ms total)
T14D0 000:890 JLINK_ReadMem (0xE00FE000, 0x0020 Bytes, ...) -- CPU is running -- CPU_ReadMem(32 bytes @ 0xE00FE000) - Data: 03 10 00 00 03 30 F4 FF 02 50 F4 FF 02 20 F0 1F ...  returns 0x00 (0002ms, 0859ms total)
T14D0 000:892 JLINK_ReadMem (0xE00FFFF0, 0x0010 Bytes, ...) -- CPU is running -- CPU_ReadMem(16 bytes @ 0xE00FFFF0) - Data: 0D 00 00 00 10 00 00 00 05 00 00 00 B1 00 00 00  returns 0x00 (0002ms, 0861ms total)
T14D0 000:894 JLINK_ReadMem (0xE00FFFD0, 0x0020 Bytes, ...) -- CPU is running -- CPU_ReadMem(32 bytes @ 0xE00FFFD0) - Data: 04 00 00 00 00 00 00 00 00 00 00 00 00 00 00 00 ...  returns 0x00 (0001ms, 0862ms total)
T14D0 000:895 JLINK_ReadMem (0xE00FF000, 0x0020 Bytes, ...) -- CPU is running -- CPU_ReadMem(32 bytes @ 0xE00FF000) - Data: 03 F0 F0 FF 03 20 F0 FF 03 30 F0 FF 03 10 F0 FF ...  returns 0x00 (0002ms, 0864ms total)
T14D0 000:897 JLINK_ReadMem (0xE000EFF0, 0x0010 Bytes, ...) -- CPU is running -- CPU_ReadMem(16 bytes @ 0xE000EFF0) - Data: 0D 00 00 00 E0 00 00 00 05 00 00 00 B1 00 00 00  returns 0x00 (0001ms, 0865ms total)
T14D0 000:898 JLINK_ReadMem (0xE000EFD0, 0x0020 Bytes, ...) -- CPU is running -- CPU_ReadMem(32 bytes @ 0xE000EFD0) - Data: 04 00 00 00 00 00 00 00 00 00 00 00 00 00 00 00 ...  returns 0x00 (0002ms, 0867ms total)
T14D0 000:900 JLINK_ReadMem (0xE0001FF0, 0x0010 Bytes, ...) -- CPU is running -- CPU_ReadMem(16 bytes @ 0xE0001FF0) - Data: 0D 00 00 00 E0 00 00 00 05 00 00 00 B1 00 00 00  returns 0x00 (0001ms, 0868ms total)
T14D0 000:901 JLINK_ReadMem (0xE0001FD0, 0x0020 Bytes, ...) -- CPU is running -- CPU_ReadMem(32 bytes @ 0xE0001FD0) - Data: 04 00 00 00 00 00 00 00 00 00 00 00 00 00 00 00 ...  returns 0x00 (0002ms, 0870ms total)
T14D0 000:903 JLINK_ReadMem (0xE0002FF0, 0x0010 Bytes, ...) -- CPU is running -- CPU_ReadMem(16 bytes @ 0xE0002FF0) - Data: 0D 00 00 00 E0 00 00 00 05 00 00 00 B1 00 00 00  returns 0x00 (0001ms, 0871ms total)
T14D0 000:904 JLINK_ReadMem (0xE0002FD0, 0x0020 Bytes, ...) -- CPU is running -- CPU_ReadMem(32 bytes @ 0xE0002FD0) - Data: 04 00 00 00 00 00 00 00 00 00 00 00 00 00 00 00 ...  returns 0x00 (0002ms, 0873ms total)
T14D0 000:906 JLINK_ReadMem (0xE0000FF0, 0x0010 Bytes, ...) -- CPU is running -- CPU_ReadMem(16 bytes @ 0xE0000FF0) - Data: 0D 00 00 00 E0 00 00 00 05 00 00 00 B1 00 00 00  returns 0x00 (0002ms, 0875ms total)
T14D0 000:908 JLINK_ReadMem (0xE0000FD0, 0x0020 Bytes, ...) -- CPU is running -- CPU_ReadMem(32 bytes @ 0xE0000FD0) - Data: 04 00 00 00 00 00 00 00 00 00 00 00 00 00 00 00 ...  returns 0x00 (0001ms, 0876ms total)
T14D0 000:909 JLINK_ReadMem (0xE0041FF0, 0x0010 Bytes, ...) -- CPU is running -- CPU_ReadMem(16 bytes @ 0xE0041FF0) - Data: 0D 00 00 00 90 00 00 00 05 00 00 00 B1 00 00 00  returns 0x00 (0001ms, 0877ms total)
T14D0 000:910 JLINK_ReadMem (0xE0041FD0, 0x0020 Bytes, ...) -- CPU is running -- CPU_ReadMem(32 bytes @ 0xE0041FD0) - Data: 04 00 00 00 00 00 00 00 00 00 00 00 00 00 00 00 ...  returns 0x00 (0002ms, 0879ms total)
T14D0 000:912 JLINK_ReadMem (0xE0040FF0, 0x0010 Bytes, ...) -- CPU is running -- CPU_ReadMem(16 bytes @ 0xE0040FF0) - Data: 0D 00 00 00 90 00 00 00 05 00 00 00 B1 00 00 00  returns 0x00 (0001ms, 0880ms total)
T14D0 000:913 JLINK_ReadMem (0xE0040FD0, 0x0020 Bytes, ...) -- CPU is running -- CPU_ReadMem(32 bytes @ 0xE0040FD0) - Data: 04 00 00 00 00 00 00 00 00 00 00 00 00 00 00 00 ...  returns 0x00 (0004ms, 0884ms total)
T14D0 000:917 JLINK_ReadMemU32(0xE000ED00, 0x0001 Items, ...) -- CPU is running -- CPU_ReadMem(4 bytes @ 0xE000ED00) - Data: 71 C2 0F 41  returns 0x01 (0000ms, 0884ms total)
T14D0 000:917 JLINK_ReadMemU32(0xE000EDF0, 0x0001 Items, ...) -- CPU is running -- CPU_ReadMem(4 bytes @ 0xE000EDF0) - Data: 01 00 01 01  returns 0x01 (0001ms, 0885ms total)
T14D0 000:918 JLINK_SetResetType(JLINKARM_RESET_TYPE_NORMAL)  returns JLINKARM_RESET_TYPE_NORMAL (0000ms, 0885ms total)
T14D0 000:918 JLINK_Reset() -- CPU is running -- CPU_WriteMem(4 bytes @ 0xE000EDF0) -- CPU is running -- CPU_WriteMem(4 bytes @ 0xE000EDFC) >0x35 TIF> -- CPU is running -- CPU_WriteMem(4 bytes @ 0xE000ED0C) -- CPU is running -- CPU_ReadMem(4 bytes @ 0xE000EDF0) -- CPU is running -- CPU_ReadMem(4 bytes @ 0xE000EDF0) -- CPU is running -- CPU_WriteMem(4 bytes @ 0xE000EDF0) -- CPU is running -- CPU_WriteMem(4 bytes @ 0xE000EDFC) -- CPU is running -- CPU_ReadMem(4 bytes @ 0xE000EDF0)
 -- CPU_WriteMem(4 bytes @ 0xE0002000) -- CPU_ReadMem(4 bytes @ 0xE000EDFC) -- CPU_ReadMem(4 bytes @ 0xE0001000) (0024ms, 0909ms total)
T14D0 000:942 JLINK_ReadReg(R15 (PC))  returns 0x080002A8 (0000ms, 0909ms total)
T14D0 000:942 JLINK_ReadReg(XPSR)  returns 0x01000000 (0000ms, 0909ms total)
T14D0 000:942 JLINK_Halt()  returns 0x00 (0001ms, 0910ms total)
T14D0 000:943 JLINK_IsHalted()  returns TRUE (0000ms, 0910ms total)
T14D0 000:943 JLINK_ReadMemU32(0xE000EDF0, 0x0001 Items, ...) -- CPU_ReadMem(4 bytes @ 0xE000EDF0) - Data: 03 00 03 00  returns 0x01 (0000ms, 0910ms total)
T14D0 000:943 JLINK_WriteU32(0xE000EDF0, 0xA05F0003) -- CPU_WriteMem(4 bytes @ 0xE000EDF0)  returns 0x00 (0001ms, 0911ms total)
T14D0 000:944 JLINK_WriteU32(0xE000EDFC, 0x01000000) -- CPU_WriteMem(4 bytes @ 0xE000EDFC)  returns 0x00 (0001ms, 0912ms total)
T14D0 000:999 JLINK_GetHWStatus(...)  returns 0x00 (0000ms, 0912ms total)
T14D0 001:012 JLINK_GetNumBPUnits(Type = 0xFFFFFF00)  returns 0x08 (0000ms, 0912ms total)
T14D0 001:012 JLINK_GetNumBPUnits(Type = 0xF0)  returns 0x2000 (0000ms, 0912ms total)
T14D0 001:012 JLINK_GetNumWPUnits()  returns 0x04 (0000ms, 0912ms total)
T14D0 001:013 JLINK_GetSpeed()  returns 0xFA0 (0000ms, 0912ms total)
T14D0 001:014 JLINK_ReadMemU32(0xE000E004, 0x0001 Items, ...) -- CPU_ReadMem(4 bytes @ 0xE000E004) - Data: 03 00 00 00  returns 0x01 (0000ms, 0912ms total)
T14D0 001:014 JLINK_ReadMemU32(0xE000E004, 0x0001 Items, ...) -- CPU_ReadMem(4 bytes @ 0xE000E004) - Data: 03 00 00 00  returns 0x01 (0001ms, 0913ms total)
T14D0 001:015 JLINK_WriteMem(0xE0001000, 0x001C Bytes, ...) - Data: 01 00 00 00 00 00 00 00 00 00 00 00 00 00 00 00 ... -- CPU_WriteMem(28 bytes @ 0xE0001000)  returns 0x1C (0003ms, 0916ms total)
T14D0 001:018 JLINK_ReadMem (0xE0001000, 0x001C Bytes, ...) -- CPU_ReadMem(28 bytes @ 0xE0001000) - Data: 01 00 00 40 00 00 00 00 00 00 00 00 00 00 00 00 ...  returns 0x00 (0002ms, 0918ms total)
T14D0 001:020 JLINK_ReadReg(R15 (PC))  returns 0x080002A8 (0000ms, 0918ms total)
T14D0 001:020 JLINK_ReadReg(XPSR)  returns 0x01000000 (0000ms, 0918ms total)
T14D0 001:119 JLINK_SetResetType(JLINKARM_RESET_TYPE_NORMAL)  returns JLINKARM_RESET_TYPE_NORMAL (0000ms, 0918ms total)
T14D0 001:119 JLINK_Reset() -- CPU_WriteMem(4 bytes @ 0xE000EDF0) -- CPU_WriteMem(4 bytes @ 0xE000EDFC) >0x35 TIF> -- CPU_WriteMem(4 bytes @ 0xE000ED0C) -- CPU_ReadMem(4 bytes @ 0xE000EDF0) -- CPU_ReadMem(4 bytes @ 0xE000EDF0) -- CPU_WriteMem(4 bytes @ 0xE000EDF0) -- CPU_WriteMem(4 bytes @ 0xE000EDFC) -- CPU is running -- CPU_ReadMem(4 bytes @ 0xE000EDF0) -- CPU_WriteMem(4 bytes @ 0xE0002000) -- CPU_ReadMem(4 bytes @ 0xE000EDFC) -- CPU_ReadMem(4 bytes @ 0xE0001000) (0023ms, 0941ms total)
T14D0 001:142 JLINK_ReadReg(R15 (PC))  returns 0x080002A8 (0000ms, 0941ms total)
T14D0 001:142 JLINK_ReadReg(XPSR)  returns 0x01000000 (0000ms, 0941ms total)
T14D0 001:147 JLINK_ReadMem (0x080002A8, 0x003C Bytes, ...) -- CPU_ReadMem(128 bytes @ 0x08000280) -- Updating C cache (128 bytes @ 0x08000280) -- Read from C cache (60 bytes @ 0x080002A8) - Data: 09 48 80 47 09 48 00 47 FE E7 FE E7 FE E7 FE E7 ...  returns 0x00 (0002ms, 0943ms total)
T2DD8 002:501 JLINK_SetBPEx(Addr = 0x0800618C, Type = 0xFFFFFFF2)  returns 0x00000001 (0001ms, 0944ms total)
T2DD8 002:502 JLINK_SetBPEx(Addr = 0x08006268, Type = 0xFFFFFFF2)  returns 0x00000002 (0000ms, 0944ms total)
T2DD8 002:502 JLINK_SetBPEx(Addr = 0x08006210, Type = 0xFFFFFFF2)  returns 0x00000003 (0000ms, 0944ms total)
T2DD8 002:502 JLINK_SetBPEx(Addr = 0x08005EA4, Type = 0xFFFFFFF2)  returns 0x00000004 (0000ms, 0944ms total)
T2DD8 002:502 JLINK_Go() -- CPU_WriteMem(4 bytes @ 0xE0002000) -- CPU_WriteMem(4 bytes @ 0xE0002000) -- CPU_WriteMem(4 bytes @ 0xE0002000) -- CPU_WriteMem(4 bytes @ 0xE0002000) -- CPU_ReadMem(4 bytes @ 0xE0001000) -- CPU_WriteMem(4 bytes @ 0xE0002008) -- CPU_WriteMem(4 bytes @ 0xE000200C) -- CPU_WriteMem(4 bytes @ 0xE0002010) -- CPU_WriteMem(4 bytes @ 0xE0002014) -- CPU_WriteMem(4 bytes @ 0xE0002018) -- CPU_WriteMem(4 bytes @ 0xE000201C) -- CPU_WriteMem(4 bytes @ 0xE0002020)
 -- CPU_WriteMem(4 bytes @ 0xE0002024) -- CPU_WriteMem(4 bytes @ 0xE0001004) (0012ms, 0956ms total)
T2DD8 002:615 JLINK_IsHalted()  returns TRUE (0002ms, 0958ms total)
T2DD8 002:617 JLINK_Halt()  returns 0x00 (0000ms, 0956ms total)
T2DD8 002:617 JLINK_IsHalted()  returns TRUE (0000ms, 0956ms total)
T2DD8 002:617 JLINK_IsHalted()  returns TRUE (0000ms, 0956ms total)
T2DD8 002:617 JLINK_IsHalted()  returns TRUE (0000ms, 0956ms total)
T2DD8 002:617 JLINK_ReadReg(R15 (PC))  returns 0x0800618C (0000ms, 0956ms total)
T2DD8 002:617 JLINK_ReadReg(XPSR)  returns 0x21000000 (0000ms, 0956ms total)
T2DD8 002:617 JLINK_ClrBPEx(BPHandle = 0x00000001)  returns 0x00 (0000ms, 0956ms total)
T2DD8 002:617 JLINK_ClrBPEx(BPHandle = 0x00000002)  returns 0x00 (0000ms, 0956ms total)
T2DD8 002:617 JLINK_ClrBPEx(BPHandle = 0x00000003)  returns 0x00 (0000ms, 0956ms total)
T2DD8 002:617 JLINK_ClrBPEx(BPHandle = 0x00000004)  returns 0x00 (0000ms, 0956ms total)
T2DD8 002:617 JLINK_ReadMemU32(0xE000ED30, 0x0001 Items, ...) -- CPU_ReadMem(4 bytes @ 0xE000ED30) - Data: 03 00 00 00  returns 0x01 (0001ms, 0957ms total)
T2DD8 002:618 JLINK_ReadMemU32(0xE0001028, 0x0001 Items, ...) -- CPU_ReadMem(4 bytes @ 0xE0001028) - Data: 00 00 00 00  returns 0x01 (0001ms, 0958ms total)
T2DD8 002:619 JLINK_ReadMemU32(0xE0001038, 0x0001 Items, ...) -- CPU_ReadMem(4 bytes @ 0xE0001038) - Data: 00 02 00 00  returns 0x01 (0001ms, 0959ms total)
T2DD8 002:620 JLINK_ReadMemU32(0xE0001048, 0x0001 Items, ...) -- CPU_ReadMem(4 bytes @ 0xE0001048) - Data: 00 00 00 00  returns 0x01 (0001ms, 0960ms total)
T2DD8 002:621 JLINK_ReadMemU32(0xE0001058, 0x0001 Items, ...) -- CPU_ReadMem(4 bytes @ 0xE0001058) - Data: 00 00 00 00  returns 0x01 (0001ms, 0961ms total)
T2DD8 002:622 JLINK_ReadReg(R0)  returns 0x200113C8 (0000ms, 0961ms total)
T2DD8 002:622 JLINK_ReadReg(R1)  returns 0x200115C8 (0000ms, 0961ms total)
T2DD8 002:622 JLINK_ReadReg(R2)  returns 0x200115C8 (0000ms, 0961ms total)
T2DD8 002:622 JLINK_ReadReg(R3)  returns 0x200115C8 (0000ms, 0961ms total)
T2DD8 002:622 JLINK_ReadReg(R4)  returns 0x00000000 (0000ms, 0961ms total)
T2DD8 002:622 JLINK_ReadReg(R5)  returns 0x20011368 (0001ms, 0962ms total)
T2DD8 002:623 JLINK_ReadReg(R6)  returns 0x00000000 (0000ms, 0962ms total)
T2DD8 002:623 JLINK_ReadReg(R7)  returns 0x00000000 (0000ms, 0962ms total)
T2DD8 002:623 JLINK_ReadReg(R8)  returns 0x00000000 (0000ms, 0962ms total)
T2DD8 002:623 JLINK_ReadReg(R9)  returns 0x00000000 (0000ms, 0962ms total)
T2DD8 002:623 JLINK_ReadReg(R10)  returns 0x08006444 (0000ms, 0962ms total)
T2DD8 002:623 JLINK_ReadReg(R11)  returns 0x00000000 (0000ms, 0962ms total)
T2DD8 002:623 JLINK_ReadReg(R12)  returns 0x200113A8 (0000ms, 0962ms total)
T2DD8 002:623 JLINK_ReadReg(R13 (SP))  returns 0x200119C8 (0000ms, 0962ms total)
T2DD8 002:623 JLINK_ReadReg(R14)  returns 0x08000297 (0000ms, 0962ms total)
T2DD8 002:623 JLINK_ReadReg(R15 (PC))  returns 0x0800618C (0000ms, 0962ms total)
T2DD8 002:623 JLINK_ReadReg(XPSR)  returns 0x21000000 (0000ms, 0962ms total)
T2DD8 002:623 JLINK_ReadReg(MSP)  returns 0x200119C8 (0000ms, 0962ms total)
T2DD8 002:623 JLINK_ReadReg(PSP)  returns 0x00000000 (0000ms, 0962ms total)
T2DD8 002:623 JLINK_ReadReg(CFBP)  returns 0x04000000 (0000ms, 0962ms total)
T2DD8 002:623 JLINK_ReadReg(FPSCR)  returns 0x03000000 (0004ms, 0966ms total)
T2DD8 002:627 JLINK_ReadReg(FPS0)  returns 0x00000000 (0000ms, 0966ms total)
T2DD8 002:627 JLINK_ReadReg(FPS1)  returns 0x00000000 (0000ms, 0966ms total)
T2DD8 002:627 JLINK_ReadReg(FPS2)  returns 0x00000000 (0000ms, 0966ms total)
T2DD8 002:627 JLINK_ReadReg(FPS3)  returns 0x00000000 (0000ms, 0966ms total)
T2DD8 002:627 JLINK_ReadReg(FPS4)  returns 0x00000000 (0000ms, 0966ms total)
T2DD8 002:627 JLINK_ReadReg(FPS5)  returns 0x00000000 (0000ms, 0966ms total)
T2DD8 002:627 JLINK_ReadReg(FPS6)  returns 0x00000000 (0000ms, 0966ms total)
T2DD8 002:627 JLINK_ReadReg(FPS7)  returns 0x00000000 (0000ms, 0966ms total)
T2DD8 002:627 JLINK_ReadReg(FPS8)  returns 0x00000000 (0000ms, 0966ms total)
T2DD8 002:627 JLINK_ReadReg(FPS9)  returns 0x00000000 (0000ms, 0966ms total)
T2DD8 002:627 JLINK_ReadReg(FPS10)  returns 0x00000000 (0000ms, 0966ms total)
T2DD8 002:627 JLINK_ReadReg(FPS11)  returns 0x00000000 (0000ms, 0966ms total)
T2DD8 002:627 JLINK_ReadReg(FPS12)  returns 0x00000000 (0000ms, 0966ms total)
T2DD8 002:627 JLINK_ReadReg(FPS13)  returns 0x00000000 (0000ms, 0966ms total)
T2DD8 002:627 JLINK_ReadReg(FPS14)  returns 0x00000000 (0000ms, 0966ms total)
T2DD8 002:627 JLINK_ReadReg(FPS15)  returns 0xFFFFFFFF (0001ms, 0967ms total)
T2DD8 002:628 JLINK_ReadReg(FPS16)  returns 0x00000000 (0000ms, 0967ms total)
T2DD8 002:628 JLINK_ReadReg(FPS17)  returns 0x00000000 (0000ms, 0967ms total)
T2DD8 002:628 JLINK_ReadReg(FPS18)  returns 0x00000000 (0000ms, 0967ms total)
T2DD8 002:628 JLINK_ReadReg(FPS19)  returns 0x00000000 (0000ms, 0967ms total)
T2DD8 002:628 JLINK_ReadReg(FPS20)  returns 0x00000000 (0000ms, 0967ms total)
T2DD8 002:628 JLINK_ReadReg(FPS21)  returns 0x00000000 (0000ms, 0967ms total)
T2DD8 002:628 JLINK_ReadReg(FPS22)  returns 0x00000000 (0000ms, 0967ms total)
T2DD8 002:628 JLINK_ReadReg(FPS23)  returns 0x00000000 (0000ms, 0967ms total)
T2DD8 002:628 JLINK_ReadReg(FPS24)  returns 0x00000000 (0000ms, 0967ms total)
T2DD8 002:628 JLINK_ReadReg(FPS25)  returns 0x00000000 (0000ms, 0967ms total)
T2DD8 002:628 JLINK_ReadReg(FPS26)  returns 0x00000000 (0000ms, 0967ms total)
T2DD8 002:628 JLINK_ReadReg(FPS27)  returns 0x00000000 (0000ms, 0967ms total)
T2DD8 002:628 JLINK_ReadReg(FPS28)  returns 0x00000000 (0000ms, 0967ms total)
T2DD8 002:628 JLINK_ReadReg(FPS29)  returns 0x00000000 (0000ms, 0967ms total)
T2DD8 002:628 JLINK_ReadReg(FPS30)  returns 0x00000000 (0000ms, 0967ms total)
T2DD8 002:628 JLINK_ReadReg(FPS31)  returns 0xFFFFFFFF (0000ms, 0967ms total)
T14D0 002:633 JLINK_ReadMem (0x0800618C, 0x003C Bytes, ...) -- CPU_ReadMem(128 bytes @ 0x08006180) -- Updating C cache (128 bytes @ 0x08006180) -- Read from C cache (60 bytes @ 0x0800618C) - Data: FE F7 D4 FE FA F7 52 F9 FF F7 12 F8 FD F7 3C FC ...  returns 0x00 (0002ms, 0969ms total)
T2DD8 005:009 JLINK_SetBPEx(Addr = 0x08006268, Type = 0xFFFFFFF2)  returns 0x00000005 (0001ms, 0970ms total)
T2DD8 005:010 JLINK_SetBPEx(Addr = 0x08006210, Type = 0xFFFFFFF2)  returns 0x00000006 (0000ms, 0970ms total)
T2DD8 005:010 JLINK_SetBPEx(Addr = 0x08005EA4, Type = 0xFFFFFFF2)  returns 0x00000007 (0000ms, 0970ms total)
T2DD8 005:010 JLINK_Go() -- CPU_WriteMem(4 bytes @ 0xE0002000) -- CPU_WriteMem(4 bytes @ 0xE0002000) -- CPU_WriteMem(4 bytes @ 0xE0002000) -- CPU_ReadMem(4 bytes @ 0xE0001000) -- CPU_WriteMem(4 bytes @ 0xE0002008) -- CPU_WriteMem(4 bytes @ 0xE000200C) -- CPU_WriteMem(4 bytes @ 0xE0002010) -- CPU_WriteMem(4 bytes @ 0xE0002014) (0009ms, 0979ms total)
T2DD8 005:120 JLINK_IsHalted()  returns TRUE (0003ms, 0982ms total)
T2DD8 005:123 JLINK_Halt()  returns 0x00 (0000ms, 0979ms total)
T2DD8 005:123 JLINK_IsHalted()  returns TRUE (0000ms, 0979ms total)
T2DD8 005:123 JLINK_IsHalted()  returns TRUE (0000ms, 0979ms total)
T2DD8 005:123 JLINK_IsHalted()  returns TRUE (0000ms, 0979ms total)
T2DD8 005:123 JLINK_ReadReg(R15 (PC))  returns 0x08005EA4 (0000ms, 0979ms total)
T2DD8 005:123 JLINK_ReadReg(XPSR)  returns 0x81000036 (0000ms, 0979ms total)
T2DD8 005:123 JLINK_ClrBPEx(BPHandle = 0x00000005)  returns 0x00 (0000ms, 0979ms total)
T2DD8 005:123 JLINK_ClrBPEx(BPHandle = 0x00000006)  returns 0x00 (0000ms, 0979ms total)
T2DD8 005:123 JLINK_ClrBPEx(BPHandle = 0x00000007)  returns 0x00 (0000ms, 0979ms total)
T2DD8 005:123 JLINK_ReadMemU32(0xE000ED30, 0x0001 Items, ...) -- CPU_ReadMem(4 bytes @ 0xE000ED30) - Data: 03 00 00 00  returns 0x01 (0001ms, 0980ms total)
T2DD8 005:124 JLINK_ReadMemU32(0xE0001028, 0x0001 Items, ...) -- CPU_ReadMem(4 bytes @ 0xE0001028) - Data: 00 00 00 00  returns 0x01 (0001ms, 0981ms total)
T2DD8 005:125 JLINK_ReadMemU32(0xE0001038, 0x0001 Items, ...) -- CPU_ReadMem(4 bytes @ 0xE0001038) - Data: 00 02 00 00  returns 0x01 (0001ms, 0982ms total)
T2DD8 005:126 JLINK_ReadMemU32(0xE0001048, 0x0001 Items, ...) -- CPU_ReadMem(4 bytes @ 0xE0001048) - Data: 00 00 00 00  returns 0x01 (0001ms, 0983ms total)
T2DD8 005:127 JLINK_ReadMemU32(0xE0001058, 0x0001 Items, ...) -- CPU_ReadMem(4 bytes @ 0xE0001058) - Data: 00 00 00 00  returns 0x01 (0001ms, 0984ms total)
T2DD8 005:128 JLINK_ReadReg(R0)  returns 0x00000000 (0000ms, 0984ms total)
T2DD8 005:128 JLINK_ReadReg(R1)  returns 0x00000000 (0000ms, 0984ms total)
T2DD8 005:128 JLINK_ReadReg(R2)  returns 0x00000000 (0000ms, 0984ms total)
T2DD8 005:128 JLINK_ReadReg(R3)  returns 0x02000000 (0000ms, 0984ms total)
T2DD8 005:128 JLINK_ReadReg(R4)  returns 0x00000000 (0000ms, 0984ms total)
T2DD8 005:128 JLINK_ReadReg(R5)  returns 0x20011368 (0000ms, 0984ms total)
T2DD8 005:128 JLINK_ReadReg(R6)  returns 0x00000000 (0000ms, 0984ms total)
T2DD8 005:128 JLINK_ReadReg(R7)  returns 0x00000000 (0000ms, 0984ms total)
T2DD8 005:128 JLINK_ReadReg(R8)  returns 0x00000000 (0000ms, 0984ms total)
T2DD8 005:128 JLINK_ReadReg(R9)  returns 0x00000000 (0000ms, 0984ms total)
T2DD8 005:128 JLINK_ReadReg(R10)  returns 0x08006444 (0000ms, 0984ms total)
T2DD8 005:128 JLINK_ReadReg(R11)  returns 0x00000000 (0000ms, 0984ms total)
T2DD8 005:128 JLINK_ReadReg(R12)  returns 0x00000000 (0000ms, 0984ms total)
T2DD8 005:128 JLINK_ReadReg(R13 (SP))  returns 0x20011940 (0001ms, 0985ms total)
T2DD8 005:129 JLINK_ReadReg(R14)  returns 0x08005EA5 (0000ms, 0985ms total)
T2DD8 005:129 JLINK_ReadReg(R15 (PC))  returns 0x08005EA4 (0000ms, 0985ms total)
T2DD8 005:129 JLINK_ReadReg(XPSR)  returns 0x81000036 (0000ms, 0985ms total)
T2DD8 005:129 JLINK_ReadReg(MSP)  returns 0x20011940 (0000ms, 0985ms total)
T2DD8 005:129 JLINK_ReadReg(PSP)  returns 0x00000000 (0000ms, 0985ms total)
T2DD8 005:129 JLINK_ReadReg(CFBP)  returns 0x00000000 (0000ms, 0985ms total)
T2DD8 005:129 JLINK_ReadReg(FPSCR)  returns 0x03000000 (0004ms, 0989ms total)
T2DD8 005:133 JLINK_ReadReg(FPS0)  returns 0x00000000 (0000ms, 0989ms total)
T2DD8 005:133 JLINK_ReadReg(FPS1)  returns 0x00000000 (0000ms, 0989ms total)
T2DD8 005:133 JLINK_ReadReg(FPS2)  returns 0x00000000 (0000ms, 0989ms total)
T2DD8 005:133 JLINK_ReadReg(FPS3)  returns 0x00000000 (0000ms, 0989ms total)
T2DD8 005:133 JLINK_ReadReg(FPS4)  returns 0x00000000 (0000ms, 0989ms total)
T2DD8 005:133 JLINK_ReadReg(FPS5)  returns 0x00000000 (0000ms, 0989ms total)
T2DD8 005:133 JLINK_ReadReg(FPS6)  returns 0x00000000 (0000ms, 0989ms total)
T2DD8 005:133 JLINK_ReadReg(FPS7)  returns 0x00000000 (0000ms, 0989ms total)
T2DD8 005:133 JLINK_ReadReg(FPS8)  returns 0x00000000 (0000ms, 0989ms total)
T2DD8 005:133 JLINK_ReadReg(FPS9)  returns 0x00000000 (0000ms, 0989ms total)
T2DD8 005:133 JLINK_ReadReg(FPS10)  returns 0x00000000 (0000ms, 0989ms total)
T2DD8 005:133 JLINK_ReadReg(FPS11)  returns 0x00000000 (0000ms, 0989ms total)
T2DD8 005:133 JLINK_ReadReg(FPS12)  returns 0x00000000 (0000ms, 0989ms total)
T2DD8 005:133 JLINK_ReadReg(FPS13)  returns 0x00000000 (0000ms, 0989ms total)
T2DD8 005:133 JLINK_ReadReg(FPS14)  returns 0x00000000 (0000ms, 0989ms total)
T2DD8 005:133 JLINK_ReadReg(FPS15)  returns 0xFFFFFFFF (0000ms, 0989ms total)
T2DD8 005:134 JLINK_ReadReg(FPS16)  returns 0x00000000 (0000ms, 0989ms total)
T2DD8 005:134 JLINK_ReadReg(FPS17)  returns 0x00000000 (0000ms, 0989ms total)
T2DD8 005:134 JLINK_ReadReg(FPS18)  returns 0x00000000 (0000ms, 0989ms total)
T2DD8 005:134 JLINK_ReadReg(FPS19)  returns 0x00000000 (0000ms, 0989ms total)
T2DD8 005:134 JLINK_ReadReg(FPS20)  returns 0x00000000 (0000ms, 0989ms total)
T2DD8 005:134 JLINK_ReadReg(FPS21)  returns 0x00000000 (0000ms, 0989ms total)
T2DD8 005:134 JLINK_ReadReg(FPS22)  returns 0x00000000 (0000ms, 0989ms total)
T2DD8 005:134 JLINK_ReadReg(FPS23)  returns 0x00000000 (0000ms, 0989ms total)
T2DD8 005:134 JLINK_ReadReg(FPS24)  returns 0x00000000 (0000ms, 0989ms total)
T2DD8 005:134 JLINK_ReadReg(FPS25)  returns 0x00000000 (0000ms, 0989ms total)
T2DD8 005:134 JLINK_ReadReg(FPS26)  returns 0x00000000 (0000ms, 0989ms total)
T2DD8 005:134 JLINK_ReadReg(FPS27)  returns 0x00000000 (0000ms, 0989ms total)
T2DD8 005:134 JLINK_ReadReg(FPS28)  returns 0x00000000 (0000ms, 0989ms total)
T2DD8 005:134 JLINK_ReadReg(FPS29)  returns 0x00000000 (0000ms, 0989ms total)
T2DD8 005:134 JLINK_ReadReg(FPS30)  returns 0x00000000 (0000ms, 0989ms total)
T2DD8 005:134 JLINK_ReadReg(FPS31)  returns 0xFFFFFFFF (0000ms, 0989ms total)
T14D0 005:135 JLINK_ReadMem (0x20011944, 0x0004 Bytes, ...) -- CPU_ReadMem(64 bytes @ 0x20011940) -- Updating C cache (64 bytes @ 0x20011940) -- Read from C cache (4 bytes @ 0x20011944) - Data: E9 FF FF FF  returns 0x00 (0002ms, 0991ms total)
T14D0 005:137 JLINK_ReadMem (0x20011960, 0x0004 Bytes, ...) -- Read from C cache (4 bytes @ 0x20011960) - Data: FA 39 00 08  returns 0x00 (0000ms, 0991ms total)
T14D0 005:137 JLINK_ReadMem (0x20011964, 0x0004 Bytes, ...) -- Read from C cache (4 bytes @ 0x20011964) - Data: 00 00 00 81  returns 0x00 (0000ms, 0991ms total)
T14D0 005:137 JLINK_ReadMem (0x2001195C, 0x0004 Bytes, ...) -- Read from C cache (4 bytes @ 0x2001195C) - Data: B9 37 00 08  returns 0x00 (0000ms, 0991ms total)
T14D0 005:137 JLINK_ReadMem (0xE000ED28, 0x0004 Bytes, ...) -- CPU_ReadMem(4 bytes @ 0xE000ED28) - Data: 00 00 00 00  returns 0x00 (0001ms, 0992ms total)
T14D0 005:139 JLINK_ReadMem (0x200119AC, 0x0004 Bytes, ...) -- CPU_ReadMem(64 bytes @ 0x20011980) -- Updating C cache (64 bytes @ 0x20011980) -- Read from C cache (4 bytes @ 0x200119AC) - Data: 81 58 00 08  returns 0x00 (0002ms, 0994ms total)
T14D0 005:141 JLINK_ReadMem (0x200119B0, 0x0004 Bytes, ...) -- Read from C cache (4 bytes @ 0x200119B0) - Data: 2C 01 00 00  returns 0x00 (0000ms, 0994ms total)
T2DD8 006:539 JLINK_Step() -- CPU_ReadMem(64 bytes @ 0x08005E80) -- Updating C cache (64 bytes @ 0x08005E80) -- Read from C cache (2 bytes @ 0x08005EA4) -- CPU_ReadMem(4 bytes @ 0xE0001004) -- Simulated  returns 0x00 (0005ms, 0999ms total)
T2DD8 006:544 JLINK_ReadReg(R15 (PC))  returns 0x08005EA6 (0000ms, 0999ms total)
T2DD8 006:544 JLINK_ReadReg(XPSR)  returns 0x81000036 (0000ms, 0999ms total)
T2DD8 006:544 JLINK_SetBPEx(Addr = 0x08006268, Type = 0xFFFFFFF2)  returns 0x00000008 (0000ms, 0999ms total)
T2DD8 006:544 JLINK_SetBPEx(Addr = 0x08006210, Type = 0xFFFFFFF2)  returns 0x00000009 (0000ms, 0999ms total)
T2DD8 006:544 JLINK_SetBPEx(Addr = 0x08005EA4, Type = 0xFFFFFFF2)  returns 0x0000000A (0000ms, 0999ms total)
T2DD8 006:544 JLINK_Go() -- CPU_WriteMem(4 bytes @ 0xE0002000) -- CPU_WriteMem(4 bytes @ 0xE0002000) -- CPU_WriteMem(4 bytes @ 0xE0002000) -- CPU_ReadMem(4 bytes @ 0xE0001000) -- CPU_WriteMem(4 bytes @ 0xE0001004) (0010ms, 1009ms total)
T2DD8 006:654 JLINK_IsHalted()  returns FALSE (0000ms, 1009ms total)
T2DD8 006:755 JLINK_IsHalted()  returns FALSE (0000ms, 1009ms total)
T2DD8 006:856 JLINK_IsHalted()  returns FALSE (0001ms, 1010ms total)
T2DD8 006:958 JLINK_IsHalted()  returns FALSE (0000ms, 1009ms total)
T2DD8 007:059 JLINK_IsHalted()  returns FALSE (0001ms, 1010ms total)
T2DD8 007:161 JLINK_ReadMemU32(0xE0001004, 0x0001 Items, ...) -- CPU is running -- CPU_ReadMem(4 bytes @ 0xE0001004) - Data: CC FC D9 07  returns 0x01 (0001ms, 1010ms total)
T2DD8 007:162 JLINK_IsHalted()  returns FALSE (0001ms, 1011ms total)
T2DD8 007:264 JLINK_IsHalted()  returns FALSE (0000ms, 1010ms total)
T2DD8 007:365 JLINK_IsHalted()  returns FALSE (0000ms, 1010ms total)
T2DD8 007:466 JLINK_IsHalted()  returns FALSE (0000ms, 1010ms total)
T2DD8 007:567 JLINK_IsHalted()  returns FALSE (0001ms, 1011ms total)
T2DD8 007:669 JLINK_IsHalted()  returns FALSE (0000ms, 1010ms total)
T2DD8 007:770 JLINK_ReadMemU32(0xE0001004, 0x0001 Items, ...) -- CPU is running -- CPU_ReadMem(4 bytes @ 0xE0001004) - Data: 69 61 B1 0F  returns 0x01 (0001ms, 1011ms total)
T2DD8 007:771 JLINK_IsHalted()  returns FALSE (0001ms, 1012ms total)
T2DD8 007:873 JLINK_IsHalted()  returns FALSE (0001ms, 1012ms total)
T2DD8 007:975 JLINK_IsHalted()  returns FALSE (0001ms, 1012ms total)
T2DD8 008:077 JLINK_IsHalted()  returns FALSE (0001ms, 1012ms total)
T2DD8 008:179 JLINK_IsHalted()  returns FALSE (0002ms, 1013ms total)
T2DD8 008:282 JLINK_ReadMemU32(0xE0001004, 0x0001 Items, ...) -- CPU is running -- CPU_ReadMem(4 bytes @ 0xE0001004) - Data: 1F 93 45 16  returns 0x01 (0001ms, 1012ms total)
T2DD8 008:283 JLINK_IsHalted()  returns FALSE (0001ms, 1013ms total)
T2DD8 008:385 JLINK_IsHalted()  returns FALSE (0001ms, 1013ms total)
T2DD8 008:487 JLINK_IsHalted()  returns FALSE (0001ms, 1013ms total)
T2DD8 008:588 JLINK_IsHalted()  returns FALSE (0001ms, 1013ms total)
T2DD8 008:690 JLINK_IsHalted()  returns FALSE (0001ms, 1013ms total)
T2DD8 008:792 JLINK_IsHalted()  returns FALSE (0001ms, 1013ms total)
T2DD8 008:894 JLINK_ReadMemU32(0xE0001004, 0x0001 Items, ...) -- CPU is running -- CPU_ReadMem(4 bytes @ 0xE0001004) - Data: 1F 1E 2A 1E  returns 0x01 (0001ms, 1013ms total)
T2DD8 008:895 JLINK_IsHalted()  returns FALSE (0001ms, 1014ms total)
T2DD8 008:997 JLINK_IsHalted()  returns FALSE (0001ms, 1014ms total)
T2DD8 009:100 JLINK_IsHalted()  returns FALSE (0000ms, 1013ms total)
T2DD8 009:201 JLINK_IsHalted()  returns FALSE (0001ms, 1014ms total)
T2DD8 009:303 JLINK_IsHalted()  returns FALSE (0001ms, 1014ms total)
T2DD8 009:405 JLINK_IsHalted()  returns FALSE (0001ms, 1014ms total)
T2DD8 009:507 JLINK_ReadMemU32(0xE0001004, 0x0001 Items, ...) -- CPU is running -- CPU_ReadMem(4 bytes @ 0xE0001004) - Data: 56 57 0B 26  returns 0x01 (0001ms, 1014ms total)
T2DD8 009:508 JLINK_IsHalted()  returns FALSE (0001ms, 1015ms total)
T2DD8 009:609 JLINK_IsHalted()  returns FALSE (0002ms, 1016ms total)
T2DD8 009:712 JLINK_IsHalted()  returns FALSE (0000ms, 1014ms total)
T2DD8 009:813 JLINK_IsHalted()  returns FALSE (0000ms, 1014ms total)
T2DD8 009:914 JLINK_IsHalted()  returns FALSE (0000ms, 1014ms total)
T2DD8 010:015 JLINK_ReadMemU32(0xE0001004, 0x0001 Items, ...) -- CPU is running -- CPU_ReadMem(4 bytes @ 0xE0001004) - Data: 54 F1 98 2C  returns 0x01 (0001ms, 1015ms total)
T2DD8 010:016 JLINK_IsHalted()  returns FALSE (0001ms, 1016ms total)
T2DD8 010:119 JLINK_IsHalted()  returns FALSE (0001ms, 1016ms total)
T2DD8 010:221 JLINK_IsHalted()  returns FALSE (0001ms, 1016ms total)
T2DD8 010:322 JLINK_IsHalted()  returns FALSE (0001ms, 1016ms total)
T2DD8 010:423 JLINK_IsHalted()  returns FALSE (0001ms, 1016ms total)
T2DD8 010:524 JLINK_IsHalted()  returns FALSE (0000ms, 1015ms total)
T2DD8 010:625 JLINK_ReadMemU32(0xE0001004, 0x0001 Items, ...) -- CPU is running -- CPU_ReadMem(4 bytes @ 0xE0001004) - Data: 06 8A 73 34  returns 0x01 (0001ms, 1016ms total)
T2DD8 010:626 JLINK_IsHalted()  returns FALSE (0001ms, 1017ms total)
T2DD8 010:728 JLINK_IsHalted()  returns FALSE (0000ms, 1016ms total)
T2DD8 010:829 JLINK_IsHalted()  returns FALSE (0001ms, 1017ms total)
T2DD8 010:932 JLINK_IsHalted()  returns FALSE (0001ms, 1017ms total)
T2DD8 011:034 JLINK_IsHalted()  returns FALSE (0001ms, 1017ms total)
T2DD8 011:136 JLINK_IsHalted()  returns FALSE (0001ms, 1017ms total)
T2DD8 011:238 JLINK_ReadMemU32(0xE0001004, 0x0001 Items, ...) -- CPU is running -- CPU_ReadMem(4 bytes @ 0xE0001004) - Data: 53 BA 54 3C  returns 0x01 (0001ms, 1017ms total)
T2DD8 011:240 JLINK_IsHalted()  returns FALSE (0001ms, 1018ms total)
T2DD8 011:342 JLINK_IsHalted()  returns FALSE (0001ms, 1018ms total)
T2DD8 011:444 JLINK_IsHalted()  returns FALSE (0001ms, 1018ms total)
T2DD8 011:545 JLINK_IsHalted()  returns FALSE (0000ms, 1017ms total)
T2DD8 011:646 JLINK_IsHalted()  returns FALSE (0001ms, 1018ms total)
T2DD8 011:748 JLINK_IsHalted()  returns FALSE (0000ms, 1017ms total)
T2DD8 011:849 JLINK_ReadMemU32(0xE0001004, 0x0001 Items, ...) -- CPU is running -- CPU_ReadMem(4 bytes @ 0xE0001004) - Data: E2 AD 32 44  returns 0x01 (0000ms, 1017ms total)
T2DD8 011:849 JLINK_IsHalted()  returns FALSE (0001ms, 1018ms total)
T2DD8 011:951 JLINK_IsHalted()  returns FALSE (0001ms, 1018ms total)
T2DD8 012:053 JLINK_IsHalted()  returns FALSE (0000ms, 1017ms total)
T2DD8 012:155 JLINK_IsHalted()  returns FALSE (0001ms, 1018ms total)
T2DD8 012:257 JLINK_IsHalted()  returns FALSE (0001ms, 1018ms total)
T2DD8 012:359 JLINK_IsHalted()  returns TRUE (0003ms, 1020ms total)
T2DD8 012:362 JLINK_Halt()  returns 0x00 (0000ms, 1017ms total)
T2DD8 012:362 JLINK_IsHalted()  returns TRUE (0000ms, 1017ms total)
T2DD8 012:362 JLINK_IsHalted()  returns TRUE (0000ms, 1017ms total)
T2DD8 012:362 JLINK_IsHalted()  returns TRUE (0000ms, 1017ms total)
T2DD8 012:362 JLINK_ReadReg(R15 (PC))  returns 0x08005EA4 (0000ms, 1017ms total)
T2DD8 012:362 JLINK_ReadReg(XPSR)  returns 0x81000036 (0000ms, 1017ms total)
T2DD8 012:362 JLINK_ClrBPEx(BPHandle = 0x00000008)  returns 0x00 (0000ms, 1017ms total)
T2DD8 012:362 JLINK_ClrBPEx(BPHandle = 0x00000009)  returns 0x00 (0000ms, 1017ms total)
T2DD8 012:362 JLINK_ClrBPEx(BPHandle = 0x0000000A)  returns 0x00 (0000ms, 1017ms total)
T2DD8 012:362 JLINK_ReadMemU32(0xE000ED30, 0x0001 Items, ...) -- CPU_ReadMem(4 bytes @ 0xE000ED30) - Data: 03 00 00 00  returns 0x01 (0001ms, 1018ms total)
T2DD8 012:363 JLINK_ReadMemU32(0xE0001028, 0x0001 Items, ...) -- CPU_ReadMem(4 bytes @ 0xE0001028) - Data: 00 00 00 00  returns 0x01 (0001ms, 1019ms total)
T2DD8 012:364 JLINK_ReadMemU32(0xE0001038, 0x0001 Items, ...) -- CPU_ReadMem(4 bytes @ 0xE0001038) - Data: 00 02 00 00  returns 0x01 (0001ms, 1020ms total)
T2DD8 012:365 JLINK_ReadMemU32(0xE0001048, 0x0001 Items, ...) -- CPU_ReadMem(4 bytes @ 0xE0001048) - Data: 00 00 00 00  returns 0x01 (0001ms, 1021ms total)
T2DD8 012:366 JLINK_ReadMemU32(0xE0001058, 0x0001 Items, ...) -- CPU_ReadMem(4 bytes @ 0xE0001058) - Data: 00 00 00 00  returns 0x01 (0001ms, 1022ms total)
T2DD8 012:367 JLINK_ReadReg(R0)  returns 0x00000000 (0000ms, 1022ms total)
T2DD8 012:367 JLINK_ReadReg(R1)  returns 0x00000000 (0000ms, 1022ms total)
T2DD8 012:367 JLINK_ReadReg(R2)  returns 0x40021000 (0000ms, 1022ms total)
T2DD8 012:367 JLINK_ReadReg(R3)  returns 0x00000001 (0000ms, 1022ms total)
T2DD8 012:367 JLINK_ReadReg(R4)  returns 0x00000000 (0000ms, 1022ms total)
T2DD8 012:367 JLINK_ReadReg(R5)  returns 0x20011368 (0000ms, 1022ms total)
T2DD8 012:367 JLINK_ReadReg(R6)  returns 0x00000000 (0000ms, 1022ms total)
T2DD8 012:367 JLINK_ReadReg(R7)  returns 0x00000000 (0000ms, 1022ms total)
T2DD8 012:367 JLINK_ReadReg(R8)  returns 0x00000000 (0000ms, 1022ms total)
T2DD8 012:367 JLINK_ReadReg(R9)  returns 0x00000000 (0000ms, 1022ms total)
T2DD8 012:367 JLINK_ReadReg(R10)  returns 0x08006444 (0000ms, 1022ms total)
T2DD8 012:367 JLINK_ReadReg(R11)  returns 0x00000000 (0000ms, 1022ms total)
T2DD8 012:367 JLINK_ReadReg(R12)  returns 0x00000000 (0000ms, 1022ms total)
T2DD8 012:367 JLINK_ReadReg(R13 (SP))  returns 0x20011950 (0000ms, 1022ms total)
T2DD8 012:367 JLINK_ReadReg(R14)  returns 0x08005EA5 (0000ms, 1022ms total)
T2DD8 012:367 JLINK_ReadReg(R15 (PC))  returns 0x08005EA4 (0001ms, 1023ms total)
T2DD8 012:368 JLINK_ReadReg(XPSR)  returns 0x81000036 (0000ms, 1023ms total)
T2DD8 012:368 JLINK_ReadReg(MSP)  returns 0x20011950 (0000ms, 1023ms total)
T2DD8 012:368 JLINK_ReadReg(PSP)  returns 0x00000000 (0000ms, 1023ms total)
T2DD8 012:368 JLINK_ReadReg(CFBP)  returns 0x00000000 (0000ms, 1023ms total)
T2DD8 012:368 JLINK_ReadReg(FPSCR)  returns 0x03000000 (0004ms, 1027ms total)
T2DD8 012:372 JLINK_ReadReg(FPS0)  returns 0x00000000 (0000ms, 1027ms total)
T2DD8 012:372 JLINK_ReadReg(FPS1)  returns 0x00000000 (0000ms, 1027ms total)
T2DD8 012:372 JLINK_ReadReg(FPS2)  returns 0x00000000 (0000ms, 1027ms total)
T2DD8 012:372 JLINK_ReadReg(FPS3)  returns 0x00000000 (0000ms, 1027ms total)
T2DD8 012:372 JLINK_ReadReg(FPS4)  returns 0x00000000 (0000ms, 1027ms total)
T2DD8 012:372 JLINK_ReadReg(FPS5)  returns 0x00000000 (0000ms, 1027ms total)
T2DD8 012:372 JLINK_ReadReg(FPS6)  returns 0x00000000 (0000ms, 1027ms total)
T2DD8 012:372 JLINK_ReadReg(FPS7)  returns 0x00000000 (0000ms, 1027ms total)
T2DD8 012:372 JLINK_ReadReg(FPS8)  returns 0x00000000 (0000ms, 1027ms total)
T2DD8 012:372 JLINK_ReadReg(FPS9)  returns 0x00000000 (0000ms, 1027ms total)
T2DD8 012:372 JLINK_ReadReg(FPS10)  returns 0x00000000 (0000ms, 1027ms total)
T2DD8 012:372 JLINK_ReadReg(FPS11)  returns 0x00000000 (0000ms, 1027ms total)
T2DD8 012:372 JLINK_ReadReg(FPS12)  returns 0x00000000 (0000ms, 1027ms total)
T2DD8 012:372 JLINK_ReadReg(FPS13)  returns 0x00000000 (0000ms, 1027ms total)
T2DD8 012:372 JLINK_ReadReg(FPS14)  returns 0x00000000 (0000ms, 1027ms total)
T2DD8 012:372 JLINK_ReadReg(FPS15)  returns 0xFFFFFFFF (0000ms, 1027ms total)
T2DD8 012:372 JLINK_ReadReg(FPS16)  returns 0x00000000 (0000ms, 1027ms total)
T2DD8 012:372 JLINK_ReadReg(FPS17)  returns 0x00000000 (0000ms, 1027ms total)
T2DD8 012:372 JLINK_ReadReg(FPS18)  returns 0x00000000 (0000ms, 1027ms total)
T2DD8 012:372 JLINK_ReadReg(FPS19)  returns 0x00000000 (0000ms, 1027ms total)
T2DD8 012:372 JLINK_ReadReg(FPS20)  returns 0x00000000 (0000ms, 1027ms total)
T2DD8 012:372 JLINK_ReadReg(FPS21)  returns 0x00000000 (0000ms, 1027ms total)
T2DD8 012:373 JLINK_ReadReg(FPS22)  returns 0x00000000 (0000ms, 1027ms total)
T2DD8 012:373 JLINK_ReadReg(FPS23)  returns 0x00000000 (0000ms, 1027ms total)
T2DD8 012:373 JLINK_ReadReg(FPS24)  returns 0x00000000 (0000ms, 1027ms total)
T2DD8 012:373 JLINK_ReadReg(FPS25)  returns 0x00000000 (0000ms, 1027ms total)
T2DD8 012:373 JLINK_ReadReg(FPS26)  returns 0x00000000 (0000ms, 1027ms total)
T2DD8 012:373 JLINK_ReadReg(FPS27)  returns 0x00000000 (0000ms, 1027ms total)
T2DD8 012:373 JLINK_ReadReg(FPS28)  returns 0x00000000 (0000ms, 1027ms total)
T2DD8 012:373 JLINK_ReadReg(FPS29)  returns 0x00000000 (0000ms, 1027ms total)
T2DD8 012:373 JLINK_ReadReg(FPS30)  returns 0x00000000 (0000ms, 1027ms total)
T2DD8 012:373 JLINK_ReadReg(FPS31)  returns 0xFFFFFFFF (0000ms, 1027ms total)
T14D0 012:373 JLINK_ReadMem (0x20011954, 0x0004 Bytes, ...) -- CPU_ReadMem(64 bytes @ 0x20011940) -- Updating C cache (64 bytes @ 0x20011940) -- Read from C cache (4 bytes @ 0x20011954) - Data: E9 FF FF FF  returns 0x00 (0002ms, 1029ms total)
T14D0 012:375 JLINK_ReadMem (0x20011970, 0x0004 Bytes, ...) -- Read from C cache (4 bytes @ 0x20011970) - Data: 5A 61 00 08  returns 0x00 (0000ms, 1029ms total)
T14D0 012:375 JLINK_ReadMem (0x20011974, 0x0004 Bytes, ...) -- Read from C cache (4 bytes @ 0x20011974) - Data: 00 00 00 21  returns 0x00 (0000ms, 1029ms total)
T14D0 012:375 JLINK_ReadMem (0x2001196C, 0x0004 Bytes, ...) -- Read from C cache (4 bytes @ 0x2001196C) - Data: 5B 61 00 08  returns 0x00 (0000ms, 1029ms total)
T14D0 012:375 JLINK_ReadMem (0xE000ED28, 0x0004 Bytes, ...) -- CPU_ReadMem(4 bytes @ 0xE000ED28) - Data: 00 00 00 00  returns 0x00 (0001ms, 1030ms total)
T14D0 012:376 JLINK_ReadMem (0x200119BC, 0x0004 Bytes, ...) -- CPU_ReadMem(64 bytes @ 0x20011980) -- Updating C cache (64 bytes @ 0x20011980) -- Read from C cache (4 bytes @ 0x200119BC) - Data: 47 61 00 08  returns 0x00 (0003ms, 1033ms total)
T14D0 012:379 JLINK_ReadMem (0x200119C0, 0x0004 Bytes, ...) -- CPU_ReadMem(64 bytes @ 0x200119C0) -- Updating C cache (64 bytes @ 0x200119C0) -- Read from C cache (4 bytes @ 0x200119C0) - Data: 00 00 00 00  returns 0x00 (0002ms, 1035ms total)
T14D0 012:381 JLINK_ReadMem (0x200119C8, 0x0004 Bytes, ...) -- Read from C cache (4 bytes @ 0x200119C8) - Data: 00 00 00 00  returns 0x00 (0000ms, 1035ms total)
T2DD8 046:401 JLINK_Step() -- CPU_ReadMem(64 bytes @ 0x08005E80) -- Updating C cache (64 bytes @ 0x08005E80) -- Read from C cache (2 bytes @ 0x08005EA4) -- CPU_ReadMem(4 bytes @ 0xE0001004) -- Simulated  returns 0x00 (0005ms, 1040ms total)
T2DD8 046:406 JLINK_ReadReg(R15 (PC))  returns 0x08005EA6 (0000ms, 1040ms total)
T2DD8 046:406 JLINK_ReadReg(XPSR)  returns 0x81000036 (0000ms, 1040ms total)
T2DD8 046:406 JLINK_SetBPEx(Addr = 0x08006268, Type = 0xFFFFFFF2)  returns 0x0000000B (0000ms, 1040ms total)
T2DD8 046:406 JLINK_SetBPEx(Addr = 0x08006210, Type = 0xFFFFFFF2)  returns 0x0000000C (0000ms, 1040ms total)
T2DD8 046:406 JLINK_SetBPEx(Addr = 0x08005EA4, Type = 0xFFFFFFF2)  returns 0x0000000D (0000ms, 1040ms total)
T2DD8 046:406 JLINK_Go() -- CPU_WriteMem(4 bytes @ 0xE0002000) -- CPU_WriteMem(4 bytes @ 0xE0002000) -- CPU_WriteMem(4 bytes @ 0xE0002000) -- CPU_ReadMem(4 bytes @ 0xE0001000) -- CPU_WriteMem(4 bytes @ 0xE0001004) (0010ms, 1050ms total)
T2DD8 046:517 JLINK_IsHalted()  returns FALSE (0000ms, 1050ms total)
T2DD8 046:618 JLINK_IsHalted()  returns FALSE (0001ms, 1051ms total)
T2DD8 046:719 JLINK_IsHalted()  returns FALSE (0000ms, 1050ms total)
T2DD8 046:820 JLINK_IsHalted()  returns FALSE (0000ms, 1050ms total)
T2DD8 046:922 JLINK_ReadMemU32(0xE0001004, 0x0001 Items, ...) -- CPU is running -- CPU_ReadMem(4 bytes @ 0xE0001004) - Data: 9F AD AB 50  returns 0x01 (0001ms, 1051ms total)
T2DD8 046:923 JLINK_IsHalted()  returns FALSE (0001ms, 1052ms total)
T2DD8 047:025 JLINK_IsHalted()  returns FALSE (0001ms, 1052ms total)
T2DD8 047:127 JLINK_IsHalted()  returns FALSE (0001ms, 1052ms total)
T2DD8 047:229 JLINK_IsHalted()  returns FALSE (0000ms, 1051ms total)
T2DD8 047:330 JLINK_IsHalted()  returns FALSE (0000ms, 1051ms total)
T2DD8 047:431 JLINK_IsHalted()  returns FALSE (0002ms, 1053ms total)
T2DD8 047:534 JLINK_ReadMemU32(0xE0001004, 0x0001 Items, ...) -- CPU is running -- CPU_ReadMem(4 bytes @ 0xE0001004) - Data: F8 DD 8C 58  returns 0x01 (0001ms, 1052ms total)
T2DD8 047:536 JLINK_IsHalted()  returns FALSE (0001ms, 1053ms total)
T2DD8 047:638 JLINK_IsHalted()  returns FALSE (0001ms, 1053ms total)
T2DD8 047:740 JLINK_IsHalted()  returns FALSE (0001ms, 1053ms total)
T2DD8 047:842 JLINK_IsHalted()  returns FALSE (0000ms, 1052ms total)
T2DD8 047:943 JLINK_IsHalted()  returns FALSE (0000ms, 1052ms total)
T2DD8 048:045 JLINK_IsHalted()  returns FALSE (0000ms, 1052ms total)
T2DD8 048:146 JLINK_ReadMemU32(0xE0001004, 0x0001 Items, ...) -- CPU is running -- CPU_ReadMem(4 bytes @ 0xE0001004) - Data: C6 D8 6A 60  returns 0x01 (0000ms, 1052ms total)
T2DD8 048:148 JLINK_IsHalted()  returns FALSE (0001ms, 1053ms total)
T2DD8 048:250 JLINK_IsHalted()  returns FALSE (0000ms, 1052ms total)
T2DD8 048:351 JLINK_IsHalted()  returns FALSE (0001ms, 1053ms total)
T14D0 048:372 JLINK_ClrBPEx(BPHandle = 0x0000000D) -- CPU is running -- CPU is running -- CPU_WriteMem(4 bytes @ 0xE0002000) -- CPU is running -- CPU_WriteMem(4 bytes @ 0xE0002008) -- CPU is running -- CPU_WriteMem(4 bytes @ 0xE0002000) -- CPU is running -- CPU_WriteMem(4 bytes @ 0xE000200C) -- CPU is running -- CPU_WriteMem(4 bytes @ 0xE0002010) -- CPU is running -- CPU_WriteMem(4 bytes @ 0xE0002014) -- CPU is running -- CPU_WriteMem(4 bytes @ 0xE0002018) -- CPU is running
 -- CPU_WriteMem(4 bytes @ 0xE000201C) -- CPU is running -- CPU_WriteMem(4 bytes @ 0xE0002020) -- CPU is running -- CPU_WriteMem(4 bytes @ 0xE0002024)  returns 0x00 (0011ms, 1063ms total)
T2DD8 048:453 JLINK_IsHalted()  returns FALSE (0001ms, 1064ms total)
T2DD8 048:555 JLINK_IsHalted()  returns FALSE (0001ms, 1064ms total)
T2DD8 048:656 JLINK_ReadMemU32(0xE0001004, 0x0001 Items, ...) -- CPU is running -- CPU_ReadMem(4 bytes @ 0xE0001004) - Data: E5 0B FF 66  returns 0x01 (0000ms, 1063ms total)
T2DD8 048:657 JLINK_IsHalted()  returns FALSE (0000ms, 1063ms total)
T2DD8 048:759 JLINK_IsHalted()  returns FALSE (0000ms, 1063ms total)
T2DD8 048:860 JLINK_IsHalted()  returns FALSE (0000ms, 1063ms total)
T2DD8 048:961 JLINK_IsHalted()  returns FALSE (0000ms, 1063ms total)
T2DD8 049:062 JLINK_IsHalted()  returns FALSE (0000ms, 1063ms total)
T2DD8 049:163 JLINK_IsHalted()  returns FALSE (0000ms, 1063ms total)
T2DD8 049:264 JLINK_ReadMemU32(0xE0001004, 0x0001 Items, ...) -- CPU is running -- CPU_ReadMem(4 bytes @ 0xE0001004) - Data: 17 0D D3 6E  returns 0x01 (0001ms, 1064ms total)
T2DD8 049:265 JLINK_IsHalted()  returns FALSE (0001ms, 1065ms total)
T2DD8 049:367 JLINK_IsHalted()  returns FALSE (0001ms, 1065ms total)
T2DD8 049:469 JLINK_IsHalted()  returns FALSE (0002ms, 1066ms total)
T2DD8 049:572 JLINK_IsHalted()  returns FALSE (0001ms, 1065ms total)
T2DD8 049:674 JLINK_IsHalted()  returns FALSE (0001ms, 1065ms total)
T2DD8 049:776 JLINK_ReadMemU32(0xE0001004, 0x0001 Items, ...) -- CPU is running -- CPU_ReadMem(4 bytes @ 0xE0001004) - Data: 4C A2 6A 75  returns 0x01 (0001ms, 1065ms total)
T2DD8 049:777 JLINK_IsHalted()  returns FALSE (0001ms, 1066ms total)
T2DD8 049:879 JLINK_IsHalted()  returns FALSE (0001ms, 1066ms total)
T2DD8 049:981 JLINK_IsHalted()  returns FALSE (0001ms, 1066ms total)
T2DD8 050:083 JLINK_IsHalted()  returns FALSE (0000ms, 1065ms total)
T2DD8 050:185 JLINK_IsHalted()  returns FALSE (0000ms, 1065ms total)
T2DD8 050:286 JLINK_ReadMemU32(0xE0001004, 0x0001 Items, ...) -- CPU is running -- CPU_ReadMem(4 bytes @ 0xE0001004) - Data: C8 85 F8 7B  returns 0x01 (0000ms, 1065ms total)
T2DD8 050:287 JLINK_IsHalted()  returns FALSE (0000ms, 1065ms total)
T2DD8 050:388 JLINK_IsHalted()  returns FALSE (0001ms, 1066ms total)
T2DD8 050:490 JLINK_IsHalted()  returns FALSE (0002ms, 1067ms total)
T2DD8 050:593 JLINK_IsHalted()  returns FALSE (0001ms, 1066ms total)
T2DD8 050:695 JLINK_IsHalted()  returns FALSE (0001ms, 1066ms total)
T2DD8 050:797 JLINK_ReadMemU32(0xE0001004, 0x0001 Items, ...) -- CPU is running -- CPU_ReadMem(4 bytes @ 0xE0001004) - Data: 3C FF 8F 82  returns 0x01 (0001ms, 1066ms total)
T2DD8 050:803 JLINK_IsHalted()  returns FALSE (0001ms, 1067ms total)
T2DD8 050:905 JLINK_IsHalted()  returns FALSE (0001ms, 1067ms total)
T2DD8 051:007 JLINK_IsHalted()  returns FALSE (0001ms, 1067ms total)
T2DD8 051:109 JLINK_IsHalted()  returns FALSE (0001ms, 1067ms total)
T2DD8 051:211 JLINK_IsHalted()  returns FALSE (0001ms, 1067ms total)
T2DD8 051:313 JLINK_ReadMemU32(0xE0001004, 0x0001 Items, ...) -- CPU is running -- CPU_ReadMem(4 bytes @ 0xE0001004) - Data: DC BC 34 89  returns 0x01 (0001ms, 1067ms total)
T2DD8 051:314 JLINK_IsHalted()  returns FALSE (0001ms, 1068ms total)
T2DD8 051:416 JLINK_IsHalted()  returns FALSE (0001ms, 1068ms total)
T2DD8 051:518 JLINK_IsHalted()  returns FALSE (0002ms, 1069ms total)
T2DD8 051:620 JLINK_IsHalted()  returns FALSE (0000ms, 1067ms total)
T2DD8 051:721 JLINK_IsHalted()  returns FALSE (0000ms, 1067ms total)
T2DD8 051:822 JLINK_IsHalted()  returns FALSE (0000ms, 1067ms total)
T2DD8 051:923 JLINK_ReadMemU32(0xE0001004, 0x0001 Items, ...) -- CPU is running -- CPU_ReadMem(4 bytes @ 0xE0001004) - Data: 4A 55 0F 91  returns 0x01 (0001ms, 1068ms total)
T2DD8 051:931 JLINK_IsHalted()  returns FALSE (0001ms, 1069ms total)
T2DD8 052:033 JLINK_IsHalted()  returns FALSE (0001ms, 1069ms total)
T2DD8 052:135 JLINK_IsHalted()  returns FALSE (0001ms, 1069ms total)
T2DD8 052:237 JLINK_IsHalted()  returns FALSE (0001ms, 1069ms total)
T2DD8 052:339 JLINK_IsHalted()  returns FALSE (0001ms, 1069ms total)
T2DD8 052:441 JLINK_ReadMemU32(0xE0001004, 0x0001 Items, ...) -- CPU is running -- CPU_ReadMem(4 bytes @ 0xE0001004) - Data: 7D B3 BA 97  returns 0x01 (0001ms, 1069ms total)
T2DD8 052:442 JLINK_IsHalted()  returns FALSE (0002ms, 1071ms total)
T2DD8 052:545 JLINK_IsHalted()  returns FALSE (0002ms, 1071ms total)
T2DD8 052:648 JLINK_IsHalted()  returns TRUE (0002ms, 1071ms total)
T2DD8 052:650 JLINK_Halt()  returns 0x00 (0000ms, 1069ms total)
T2DD8 052:650 JLINK_IsHalted()  returns TRUE (0001ms, 1070ms total)
T2DD8 052:651 JLINK_IsHalted()  returns TRUE (0000ms, 1069ms total)
T2DD8 052:651 JLINK_IsHalted()  returns TRUE (0000ms, 1069ms total)
T2DD8 052:651 JLINK_ReadReg(R15 (PC))  returns 0x08006210 (0000ms, 1069ms total)
T2DD8 052:651 JLINK_ReadReg(XPSR)  returns 0x61000036 (0000ms, 1069ms total)
T2DD8 052:651 JLINK_ClrBPEx(BPHandle = 0x0000000B)  returns 0x00 (0000ms, 1069ms total)
T2DD8 052:651 JLINK_ClrBPEx(BPHandle = 0x0000000C)  returns 0x00 (0000ms, 1069ms total)
T2DD8 052:651 JLINK_ReadMemU32(0xE000ED30, 0x0001 Items, ...) -- CPU_ReadMem(4 bytes @ 0xE000ED30) - Data: 03 00 00 00  returns 0x01 (0002ms, 1071ms total)
